T4DD0 000:057.276   SEGGER J-Link V7.96i Log File
T4DD0 000:057.409   DLL Compiled: May 22 2024 16:10:08
T4DD0 000:057.414   Logging started @ 2025-03-22 09:16
T4DD0 000:057.418   Process: D:\KEIL MDK 5\UV4\UV4.exe
T4DD0 000:057.424 - 57.423ms
T4DD0 000:057.456 JLINK_SetWarnOutHandler(...)
T4DD0 000:057.461 - 0.006ms
T4DD0 000:057.466 JLINK_OpenEx(...)
T4DD0 000:059.697   Firmware: J-Link ARM-OB STM32 compiled Aug 22 2012 19:52:04
T4DD0 000:060.813   Firmware: J-Link ARM-OB STM32 compiled Aug 22 2012 19:52:04
T4DD0 000:062.781   Hardware: V7.00
T4DD0 000:062.795   S/N: 4294967295
T4DD0 000:062.803   OEM: SEGGER
T4DD0 000:062.811   Feature(s): RDI,FlashDL,FlashBP,JFlash,GDB
T4DD0 000:063.191   Bootloader: (Could not read)
T4DD0 000:064.104   TELNET listener socket opened on port 19021
T4DD0 000:064.294   WEBSRV WEBSRV_Init(): Starting webserver thread(s)
T4DD0 000:064.417   WEBSRV Webserver running on local port 19080
T4DD0 000:064.567   Looking for J-Link GUI Server exe at: D:\KEIL MDK 5\ARM\Segger\JLinkGUIServer.exe
T4DD0 000:064.667   Looking for J-Link GUI Server exe at: D:\j-link\JLink_V796i\JLinkGUIServer.exe
T4DD0 000:064.721   Forking J-Link GUI Server: D:\j-link\JLink_V796i\JLinkGUIServer.exe
T4DD0 000:070.261   J-Link GUI Server info: "J-Link GUI server V7.96i "
T4DD0 000:092.826 - 35.350ms returns "O.K."
T4DD0 000:092.858 JLINK_GetEmuCaps()
T4DD0 000:092.866 - 0.006ms returns 0x88EA5833
T4DD0 000:092.874 JLINK_TIF_GetAvailable(...)
T4DD0 000:093.233 - 0.359ms
T4DD0 000:093.242 JLINK_SetErrorOutHandler(...)
T4DD0 000:093.246 - 0.004ms
T4DD0 000:093.263 JLINK_ExecCommand("ProjectFile = "D:\BaiduNetdiskDownload\Load\5、智能天气时钟代码\1. stm32f103c8-project_完整功能代码\stm32f103c8-project\mdk\JLinkSettings.ini"", ...). 
T4DD0 000:104.054   Ref file found at: D:\KEIL MDK 5\ARM\Segger\JLinkDevices.ref
T4DD0 000:104.155   REF file references invalid XML file: D:\STM32Project\JLink_V796i\JLinkDevices.xml
T4DD0 000:105.455 - 12.192ms returns 0x00
T4DD0 000:105.494 JLINK_ExecCommand("Device = STM32F103C8", ...). 
T4DD0 000:105.702   Device "STM32F103C8" selected.
T4DD0 000:106.235 - 0.733ms returns 0x00
T4DD0 000:106.247 JLINK_ExecCommand("DisableConnectionTimeout", ...). 
T4DD0 000:106.257 - 0.002ms returns 0x01
T4DD0 000:106.264 JLINK_GetHardwareVersion()
T4DD0 000:106.269 - 0.005ms returns 70000
T4DD0 000:106.279 JLINK_GetDLLVersion()
T4DD0 000:106.284 - 0.008ms returns 79609
T4DD0 000:106.292 JLINK_GetOEMString(...)
T4DD0 000:106.298 JLINK_GetFirmwareString(...)
T4DD0 000:106.304 - 0.005ms
T4DD0 000:106.324 JLINK_GetDLLVersion()
T4DD0 000:106.330 - 0.005ms returns 79609
T4DD0 000:106.336 JLINK_GetCompileDateTime()
T4DD0 000:106.341 - 0.005ms
T4DD0 000:106.350 JLINK_GetFirmwareString(...)
T4DD0 000:106.356 - 0.005ms
T4DD0 000:106.364 JLINK_GetHardwareVersion()
T4DD0 000:106.370 - 0.005ms returns 70000
T4DD0 000:106.379 JLINK_GetSN()
T4DD0 000:106.384 - 0.005ms returns -1
T4DD0 000:106.390 JLINK_GetOEMString(...)
T4DD0 000:106.402 JLINK_TIF_Select(JLINKARM_TIF_SWD)
T4DD0 000:107.690 - 1.288ms returns 0x00
T4DD0 000:107.701 JLINK_HasError()
T4DD0 000:107.710 JLINK_SetSpeed(5000)
T4DD0 000:108.317 - 0.607ms
T4DD0 000:108.326 JLINK_GetId()
T4DD0 000:108.669   InitTarget() start
T4DD0 000:108.678    J-Link Script File: Executing InitTarget()
T4DD0 000:109.014   SWD selected. Executing JTAG -> SWD switching sequence.
T4DD0 000:114.554   DAP initialized successfully.
T4DD0 000:133.001   InitTarget() end - Took 24.3ms
T4DD0 000:134.067   Found SW-DP with ID 0x1BA01477
T4DD0 000:140.314   Old FW that does not support reading DPIDR via DAP jobs
T4DD0 000:146.486   DPv0 detected
T4DD0 000:146.507   CoreSight SoC-400 or earlier
T4DD0 000:146.520   Scanning AP map to find all available APs
T4DD0 000:150.614   AP[1]: Stopped AP scan as end of AP map has been reached
T4DD0 000:150.631   AP[0]: AHB-AP (IDR: 0x14770011)
T4DD0 000:150.643   Iterating through AP map to find AHB-AP to use
T4DD0 000:157.618   AP[0]: Core found
T4DD0 000:157.637   AP[0]: AHB-AP ROM base: 0xE00FF000
T4DD0 000:161.250   CPUID register: 0x411FC231. Implementer code: 0x41 (ARM)
T4DD0 000:161.276   Found Cortex-M3 r1p1, Little endian.
T4DD0 000:161.918   -- Max. mem block: 0x00002C18
T4DD0 000:162.889   CPU_ReadMem(4 bytes @ 0xE000EDF0)
T4DD0 000:163.480   CPU_ReadMem(4 bytes @ 0xE0002000)
T4DD0 000:164.112   FPUnit: 6 code (BP) slots and 2 literal slots
T4DD0 000:164.123   CPU_ReadMem(4 bytes @ 0xE000EDFC)
T4DD0 000:164.694   CPU_WriteMem(4 bytes @ 0xE000EDFC)
T4DD0 000:165.316   CPU_ReadMem(4 bytes @ 0xE0001000)
T4DD0 000:165.926   CPU_WriteMem(4 bytes @ 0xE0001000)
T4DD0 000:166.552   CPU_ReadMem(4 bytes @ 0xE000ED88)
T4DD0 000:167.135   CPU_WriteMem(4 bytes @ 0xE000ED88)
T4DD0 000:167.712   CPU_ReadMem(4 bytes @ 0xE000ED88)
T4DD0 000:168.292   CPU_WriteMem(4 bytes @ 0xE000ED88)
T4DD0 000:168.921   CoreSight components:
T4DD0 000:168.936   ROMTbl[0] @ E00FF000
T4DD0 000:168.945   CPU_ReadMem(64 bytes @ 0xE00FF000)
T4DD0 000:170.130   CPU_ReadMem(32 bytes @ 0xE000EFE0)
T4DD0 000:171.005   [0][0]: E000E000 CID B105E00D PID 001BB000 SCS
T4DD0 000:171.015   CPU_ReadMem(32 bytes @ 0xE0001FE0)
T4DD0 000:171.893   [0][1]: E0001000 CID B105E00D PID 001BB002 DWT
T4DD0 000:171.910   CPU_ReadMem(32 bytes @ 0xE0002FE0)
T4DD0 000:172.835   [0][2]: E0002000 CID B105E00D PID 000BB003 FPB
T4DD0 000:172.850   CPU_ReadMem(32 bytes @ 0xE0000FE0)
T4DD0 000:173.717   [0][3]: E0000000 CID B105E00D PID 001BB001 ITM
T4DD0 000:173.727   CPU_ReadMem(32 bytes @ 0xE0040FE0)
T4DD0 000:174.603   [0][4]: E0040000 CID B105900D PID 001BB923 TPIU-Lite
T4DD0 000:175.313 - 66.986ms returns 0x1BA01477
T4DD0 000:175.329 JLINK_GetDLLVersion()
T4DD0 000:175.335 - 0.006ms returns 79609
T4DD0 000:175.385 JLINK_CORE_GetFound()
T4DD0 000:175.400 - 0.014ms returns 0x30000FF
T4DD0 000:175.408 JLINK_GetDebugInfo(0x100 = JLINKARM_ROM_TABLE_ADDR_INDEX)
T4DD0 000:175.415   Value=0xE00FF000
T4DD0 000:175.423 - 0.015ms returns 0
T4DD0 000:175.440 JLINK_GetDebugInfo(0x100 = JLINKARM_ROM_TABLE_ADDR_INDEX)
T4DD0 000:175.446   Value=0xE00FF000
T4DD0 000:175.454 - 0.014ms returns 0
T4DD0 000:175.461 JLINK_GetDebugInfo(0x101 = JLINKARM_DEBUG_INFO_ETM_ADDR_INDEX)
T4DD0 000:175.466   Value=0x00000000
T4DD0 000:175.474 - 0.013ms returns 0
T4DD0 000:175.481 JLINK_ReadMemEx(0xE0041FF0, 0x10 Bytes, Flags = 0x02000004)
T4DD0 000:175.502   CPU_ReadMem(16 bytes @ 0xE0041FF0)
T4DD0 000:176.237   Data:  00 00 00 00 00 00 00 00 00 00 00 00 00 00 00 00
T4DD0 000:176.245 - 0.764ms returns 16 (0x10)
T4DD0 000:176.251 JLINK_GetDebugInfo(0x102 = JLINKARM_DEBUG_INFO_MTB_ADDR_INDEX)
T4DD0 000:176.255   Value=0x00000000
T4DD0 000:176.261 - 0.010ms returns 0
T4DD0 000:176.266 JLINK_GetDebugInfo(0x103 = JLINKARM_DEBUG_INFO_TPIU_ADDR_INDEX)
T4DD0 000:176.270   Value=0xE0040000
T4DD0 000:176.275 - 0.009ms returns 0
T4DD0 000:176.280 JLINK_GetDebugInfo(0x104 = JLINKARM_DEBUG_INFO_ITM_ADDR_INDEX)
T4DD0 000:176.284   Value=0xE0000000
T4DD0 000:176.289 - 0.009ms returns 0
T4DD0 000:176.294 JLINK_GetDebugInfo(0x105 = JLINKARM_DEBUG_INFO_DWT_ADDR_INDEX)
T4DD0 000:176.298   Value=0xE0001000
T4DD0 000:176.303 - 0.009ms returns 0
T4DD0 000:176.308 JLINK_GetDebugInfo(0x106 = JLINKARM_DEBUG_INFO_FPB_ADDR_INDEX)
T4DD0 000:176.311   Value=0xE0002000
T4DD0 000:176.317 - 0.009ms returns 0
T4DD0 000:176.322 JLINK_GetDebugInfo(0x107 = JLINKARM_DEBUG_INFO_NVIC_ADDR_INDEX)
T4DD0 000:176.326   Value=0xE000E000
T4DD0 000:176.331 - 0.009ms returns 0
T4DD0 000:176.336 JLINK_GetDebugInfo(0x10C = JLINKARM_DEBUG_INFO_DBG_ADDR_INDEX)
T4DD0 000:176.340   Value=0xE000EDF0
T4DD0 000:176.345 - 0.009ms returns 0
T4DD0 000:176.351 JLINK_ReadMemU32(0xE000ED00, 0x1 Items)
T4DD0 000:176.356   CPU_ReadMem(4 bytes @ 0xE000ED00)
T4DD0 000:176.913   Data:  31 C2 1F 41
T4DD0 000:176.921   Debug reg: CPUID
T4DD0 000:176.927 - 0.576ms returns 1 (0x1)
T4DD0 000:176.933 JLINK_GetDebugInfo(0x10F = JLINKARM_DEBUG_INFO_HAS_CORTEX_M_SECURITY_EXT_INDEX)
T4DD0 000:176.937   Value=0x00000000
T4DD0 000:176.943 - 0.010ms returns 0
T4DD0 000:176.947 JLINK_HasError()
T4DD0 000:176.953 JLINK_SetResetType(JLINKARM_CM3_RESET_TYPE_NORMAL)
T4DD0 000:176.962 - 0.009ms returns JLINKARM_CM3_RESET_TYPE_NORMAL
T4DD0 000:176.966 JLINK_Reset()
T4DD0 000:176.977   CPU is running
T4DD0 000:176.983   CPU_WriteMem(4 bytes @ 0xE000EDF0)
T4DD0 000:177.578   CPU is running
T4DD0 000:177.586   CPU_WriteMem(4 bytes @ 0xE000EDFC)
T4DD0 000:178.199   Reset: Halt core after reset via DEMCR.VC_CORERESET.
T4DD0 000:178.906   Reset: Reset device via AIRCR.SYSRESETREQ.
T4DD0 000:178.917   CPU is running
T4DD0 000:178.926   CPU_WriteMem(4 bytes @ 0xE000ED0C)
T4DD0 000:232.952   CPU_ReadMem(4 bytes @ 0xE000EDF0)
T4DD0 000:233.586   CPU_ReadMem(4 bytes @ 0xE000EDF0)
T4DD0 000:237.731   CPU_WriteMem(4 bytes @ 0xE000EDFC)
T4DD0 000:244.362   CPU_ReadMem(4 bytes @ 0xE000EDF0)
T4DD0 000:248.410   CPU_WriteMem(4 bytes @ 0xE0002000)
T4DD0 000:249.065   CPU_ReadMem(4 bytes @ 0xE000EDFC)
T4DD0 000:249.683   CPU_ReadMem(4 bytes @ 0xE0001000)
T4DD0 000:250.295 - 73.328ms
T4DD0 000:250.334 JLINK_HasError()
T4DD0 000:250.420 JLINK_ReadReg(R15 (PC))
T4DD0 000:250.436 - 0.023ms returns 0x08000100
T4DD0 000:250.444 JLINK_ReadReg(XPSR)
T4DD0 000:250.451 - 0.007ms returns 0x01000000
T4DD0 000:250.459 JLINK_Halt()
T4DD0 000:250.465 - 0.006ms returns 0x00
T4DD0 000:250.474 JLINK_ReadMemU32(0xE000EDF0, 0x1 Items)
T4DD0 000:250.488   CPU_ReadMem(4 bytes @ 0xE000EDF0)
T4DD0 000:251.104   Data:  03 00 03 00
T4DD0 000:251.121   Debug reg: DHCSR
T4DD0 000:251.127 - 0.654ms returns 1 (0x1)
T4DD0 000:251.139 JLINK_WriteU32_64(0xE000EDF0, 0xA05F0003)
T4DD0 000:251.144   Debug reg: DHCSR
T4DD0 000:251.584   CPU_WriteMem(4 bytes @ 0xE000EDF0)
T4DD0 000:252.215 - 1.079ms returns 0 (0x00000000)
T4DD0 000:252.231 JLINK_WriteU32_64(0xE000EDFC, 0x01000000)
T4DD0 000:252.236   Debug reg: DEMCR
T4DD0 000:252.250   CPU_WriteMem(4 bytes @ 0xE000EDFC)
T4DD0 000:252.847 - 0.616ms returns 0 (0x00000000)
T4DD0 000:252.900 JLINK_GetHWStatus(...)
T4DD0 000:253.207 - 0.307ms returns 0
T4DD0 000:253.227 JLINK_GetNumBPUnits(Type = 0xFFFFFF00)
T4DD0 000:253.233 - 0.005ms returns 0x06
T4DD0 000:253.238 JLINK_GetNumBPUnits(Type = 0xF0)
T4DD0 000:253.243 - 0.004ms returns 0x2000
T4DD0 000:253.247 JLINK_GetNumWPUnits()
T4DD0 000:253.252 - 0.004ms returns 4
T4DD0 000:253.264 JLINK_GetSpeed()
T4DD0 000:253.269 - 0.004ms returns 4000
T4DD0 000:253.278 JLINK_ReadMemU32(0xE000E004, 0x1 Items)
T4DD0 000:253.288   CPU_ReadMem(4 bytes @ 0xE000E004)
T4DD0 000:253.912   Data:  01 00 00 00
T4DD0 000:253.926 - 0.648ms returns 1 (0x1)
T4DD0 000:253.933 JLINK_ReadMemU32(0xE000E004, 0x1 Items)
T4DD0 000:253.941   CPU_ReadMem(4 bytes @ 0xE000E004)
T4DD0 000:254.542   Data:  01 00 00 00
T4DD0 000:254.553 - 0.620ms returns 1 (0x1)
T4DD0 000:254.560 JLINK_WriteMemEx(0xE0001000, 0x0000001C Bytes, Flags = 0x02000004)
T4DD0 000:254.565   Data:  01 00 00 00 00 00 00 00 00 00 00 00 00 00 00 00 ...
T4DD0 000:254.577   CPU_WriteMem(28 bytes @ 0xE0001000)
T4DD0 000:255.452 - 0.892ms returns 0x1C
T4DD0 000:255.464 JLINK_HasError()
T4DD0 000:255.470 JLINK_ReadReg(R15 (PC))
T4DD0 000:255.477 - 0.006ms returns 0x08000100
T4DD0 000:255.482 JLINK_ReadReg(XPSR)
T4DD0 000:255.487 - 0.004ms returns 0x01000000
T4DD0 000:332.635 JLINK_HasError()
T4DD0 000:332.659 JLINK_SetResetType(JLINKARM_CM3_RESET_TYPE_NORMAL)
T4DD0 000:332.665 - 0.005ms returns JLINKARM_CM3_RESET_TYPE_NORMAL
T4DD0 000:332.670 JLINK_Reset()
T4DD0 000:332.684   CPU_WriteMem(4 bytes @ 0xE000EDF0)
T4DD0 000:333.332   CPU_WriteMem(4 bytes @ 0xE000EDFC)
T4DD0 000:333.948   Reset: Halt core after reset via DEMCR.VC_CORERESET.
T4DD0 000:334.632   Reset: Reset device via AIRCR.SYSRESETREQ.
T4DD0 000:334.645   CPU_WriteMem(4 bytes @ 0xE000ED0C)
T4DD0 000:389.487   CPU_ReadMem(4 bytes @ 0xE000EDF0)
T4DD0 000:390.100   CPU_ReadMem(4 bytes @ 0xE000EDF0)
T4DD0 000:390.665   CPU_WriteMem(4 bytes @ 0xE000EDFC)
T4DD0 000:396.832   CPU_ReadMem(4 bytes @ 0xE000EDF0)
T4DD0 000:400.872   CPU_WriteMem(4 bytes @ 0xE0002000)
T4DD0 000:401.511   CPU_ReadMem(4 bytes @ 0xE000EDFC)
T4DD0 000:402.112   CPU_ReadMem(4 bytes @ 0xE0001000)
T4DD0 000:402.665 - 69.994ms
T4DD0 000:402.724 JLINK_HasError()
T4DD0 000:402.738 JLINK_ReadReg(R15 (PC))
T4DD0 000:402.745 - 0.007ms returns 0x08000100
T4DD0 000:402.750 JLINK_ReadReg(XPSR)
T4DD0 000:402.755 - 0.004ms returns 0x01000000
T4DD0 000:402.789 JLINK_HasError()
T4DD0 000:402.800 JLINK_ReadReg(R0)
T4DD0 000:402.804 - 0.010ms returns 0x2000000C
T4DD0 000:402.809 JLINK_ReadReg(R1)
T4DD0 000:402.813 - 0.004ms returns 0x00000032
T4DD0 000:402.818 JLINK_ReadReg(R2)
T4DD0 000:402.822 - 0.004ms returns 0x000007FF
T4DD0 000:402.830 JLINK_ReadReg(R3)
T4DD0 000:402.834 - 0.004ms returns 0x00000000
T4DD0 000:402.838 JLINK_ReadReg(R4)
T4DD0 000:402.843 - 0.004ms returns 0x0000C661
T4DD0 000:402.847 JLINK_ReadReg(R5)
T4DD0 000:402.851 - 0.004ms returns 0x00000014
T4DD0 000:402.856 JLINK_ReadReg(R6)
T4DD0 000:402.860 - 0.004ms returns 0x00000001
T4DD0 000:402.865 JLINK_ReadReg(R7)
T4DD0 000:402.869 - 0.004ms returns 0x00000001
T4DD0 000:402.873 JLINK_ReadReg(R8)
T4DD0 000:402.878 - 0.004ms returns 0x00000000
T4DD0 000:402.882 JLINK_ReadReg(R9)
T4DD0 000:402.886 - 0.004ms returns 0x20000160
T4DD0 000:402.891 JLINK_ReadReg(R10)
T4DD0 000:402.895 - 0.004ms returns 0x00000000
T4DD0 000:402.899 JLINK_ReadReg(R11)
T4DD0 000:402.904 - 0.004ms returns 0x00000000
T4DD0 000:402.908 JLINK_ReadReg(R12)
T4DD0 000:402.912 - 0.004ms returns 0x00000000
T4DD0 000:402.917 JLINK_ReadReg(R13 (SP))
T4DD0 000:402.921 - 0.004ms returns 0x20002480
T4DD0 000:402.926 JLINK_ReadReg(R14)
T4DD0 000:402.930 - 0.004ms returns 0xFFFFFFFF
T4DD0 000:402.935 JLINK_ReadReg(R15 (PC))
T4DD0 000:402.939 - 0.004ms returns 0x08000100
T4DD0 000:402.943 JLINK_ReadReg(XPSR)
T4DD0 000:402.948 - 0.004ms returns 0x01000000
T4DD0 000:402.952 JLINK_ReadReg(MSP)
T4DD0 000:402.956 - 0.004ms returns 0x20002480
T4DD0 000:402.961 JLINK_ReadReg(PSP)
T4DD0 000:402.965 - 0.004ms returns 0x20001000
T4DD0 000:402.969 JLINK_ReadReg(CFBP)
T4DD0 000:402.973 - 0.004ms returns 0x00000000
T4DD0 000:402.978 JLINK_HasError()
T4DD0 000:402.983 JLINK_ReadMemU32(0xE0001004, 0x1 Items)
T4DD0 000:402.992   Data:  00 00 00 00
T4DD0 000:402.998   Debug reg: DWT_CYCCNT
T4DD0 000:403.004 - 0.021ms returns 1 (0x1)
T4DD0 000:584.169 JLINK_ReadMemEx(0x080000EC, 0x3C Bytes, Flags = 0x02000000)
T4DD0 000:584.194   CPU_ReadMem(128 bytes @ 0x080000C0)
T4DD0 000:586.042    -- Updating C cache (128 bytes @ 0x080000C0)
T4DD0 000:586.053    -- Read from C cache (60 bytes @ 0x080000EC)
T4DD0 000:586.063   Data:  DF F8 0C D0 00 F0 94 FB 00 48 00 47 45 26 00 08 ...
T4DD0 000:586.072 - 1.904ms returns 60 (0x3C)
T6C38 002:380.590 JLINK_ReadMemEx(0x08000100, 0x2 Bytes, Flags = 0x02000000)
T6C38 002:380.617    -- Read from C cache (2 bytes @ 0x08000100)
T6C38 002:380.624   Data:  06 48
T6C38 002:380.632 - 0.043ms returns 2 (0x2)
T6C38 002:380.638 JLINK_HasError()
T6C38 002:380.646 JLINK_SetBPEx(Addr = 0x08002644, Type = 0xFFFFFFF2)
T6C38 002:380.653 - 0.007ms returns 0x00000001
T6C38 002:380.658 JLINK_HasError()
T6C38 002:380.663 JLINK_HasError()
T6C38 002:380.673 JLINK_Go()
T6C38 002:381.273   CPU_WriteMem(4 bytes @ 0xE0002000)
T6C38 002:381.949   CPU_ReadMem(4 bytes @ 0xE0001000)
T6C38 002:382.525   CPU_WriteMem(4 bytes @ 0xE0002008)
T6C38 002:382.535   CPU_WriteMem(4 bytes @ 0xE000200C)
T6C38 002:382.543   CPU_WriteMem(4 bytes @ 0xE0002010)
T6C38 002:382.551   CPU_WriteMem(4 bytes @ 0xE0002014)
T6C38 002:382.558   CPU_WriteMem(4 bytes @ 0xE0002018)
T6C38 002:382.566   CPU_WriteMem(4 bytes @ 0xE000201C)
T6C38 002:385.054   CPU_WriteMem(4 bytes @ 0xE0001004)
T6C38 002:386.932   Memory map 'after startup completion point' is active
T6C38 002:386.943 - 6.270ms
T6C38 002:487.781 JLINK_HasError()
T6C38 002:487.802 JLINK_IsHalted()
T6C38 002:491.287 - 3.481ms returns TRUE
T6C38 002:491.298 JLINK_HasError()
T6C38 002:491.305 JLINK_Halt()
T6C38 002:491.310 - 0.005ms returns 0x00
T6C38 002:491.316 JLINK_IsHalted()
T6C38 002:491.322 - 0.005ms returns TRUE
T6C38 002:491.328 JLINK_IsHalted()
T6C38 002:491.384 - 0.055ms returns TRUE
T6C38 002:491.393 JLINK_IsHalted()
T6C38 002:491.398 - 0.005ms returns TRUE
T6C38 002:491.404 JLINK_HasError()
T6C38 002:491.411 JLINK_ReadReg(R15 (PC))
T6C38 002:491.419 - 0.007ms returns 0x08002644
T6C38 002:491.425 JLINK_ReadReg(XPSR)
T6C38 002:491.430 - 0.005ms returns 0x61000000
T6C38 002:491.438 JLINK_HasError()
T6C38 002:491.444 JLINK_ClrBPEx(BPHandle = 0x00000001)
T6C38 002:491.450 - 0.006ms returns 0x00
T6C38 002:491.456 JLINK_HasError()
T6C38 002:491.462 JLINK_HasError()
T6C38 002:491.468 JLINK_ReadMemU32(0xE000ED30, 0x1 Items)
T6C38 002:491.479   CPU_ReadMem(4 bytes @ 0xE000ED30)
T6C38 002:492.115   Data:  03 00 00 00
T6C38 002:492.130 - 0.661ms returns 1 (0x1)
T6C38 002:492.138 JLINK_ReadMemU32(0xE0001028, 0x1 Items)
T6C38 002:492.148   CPU_ReadMem(4 bytes @ 0xE0001028)
T6C38 002:492.720   Data:  00 00 00 00
T6C38 002:492.730   Debug reg: DWT_FUNC[0]
T6C38 002:492.737 - 0.599ms returns 1 (0x1)
T6C38 002:492.744 JLINK_ReadMemU32(0xE0001038, 0x1 Items)
T6C38 002:492.752   CPU_ReadMem(4 bytes @ 0xE0001038)
T6C38 002:493.320   Data:  00 02 00 00
T6C38 002:493.329   Debug reg: DWT_FUNC[1]
T6C38 002:493.336 - 0.591ms returns 1 (0x1)
T6C38 002:493.343 JLINK_ReadMemU32(0xE0001048, 0x1 Items)
T6C38 002:493.351   CPU_ReadMem(4 bytes @ 0xE0001048)
T6C38 002:493.917   Data:  00 00 00 00
T6C38 002:493.924   Debug reg: DWT_FUNC[2]
T6C38 002:493.931 - 0.587ms returns 1 (0x1)
T6C38 002:493.936 JLINK_ReadMemU32(0xE0001058, 0x1 Items)
T6C38 002:493.942   CPU_ReadMem(4 bytes @ 0xE0001058)
T6C38 002:494.526   Data:  00 00 00 00
T6C38 002:494.535   Debug reg: DWT_FUNC[3]
T6C38 002:494.542 - 0.605ms returns 1 (0x1)
T6C38 002:494.566 JLINK_HasError()
T6C38 002:494.573 JLINK_ReadReg(R0)
T6C38 002:494.580 - 0.006ms returns 0x08002645
T6C38 002:494.585 JLINK_ReadReg(R1)
T6C38 002:494.591 - 0.005ms returns 0x20002480
T6C38 002:494.597 JLINK_ReadReg(R2)
T6C38 002:494.602 - 0.005ms returns 0x00000000
T6C38 002:494.608 JLINK_ReadReg(R3)
T6C38 002:494.613 - 0.005ms returns 0x080015CD
T6C38 002:494.619 JLINK_ReadReg(R4)
T6C38 002:494.624 - 0.005ms returns 0x0800B2D0
T6C38 002:494.630 JLINK_ReadReg(R5)
T6C38 002:494.635 - 0.005ms returns 0x0800B2D0
T6C38 002:494.641 JLINK_ReadReg(R6)
T6C38 002:494.646 - 0.005ms returns 0x00000001
T6C38 002:494.652 JLINK_ReadReg(R7)
T6C38 002:494.657 - 0.005ms returns 0x00000001
T6C38 002:494.663 JLINK_ReadReg(R8)
T6C38 002:494.668 - 0.005ms returns 0x00000000
T6C38 002:494.674 JLINK_ReadReg(R9)
T6C38 002:494.679 - 0.005ms returns 0x20000160
T6C38 002:494.685 JLINK_ReadReg(R10)
T6C38 002:494.690 - 0.005ms returns 0x00000000
T6C38 002:494.696 JLINK_ReadReg(R11)
T6C38 002:494.701 - 0.005ms returns 0x00000000
T6C38 002:494.706 JLINK_ReadReg(R12)
T6C38 002:494.712 - 0.005ms returns 0x00000000
T6C38 002:494.718 JLINK_ReadReg(R13 (SP))
T6C38 002:494.723 - 0.005ms returns 0x20002480
T6C38 002:494.729 JLINK_ReadReg(R14)
T6C38 002:494.734 - 0.005ms returns 0x08000839
T6C38 002:494.740 JLINK_ReadReg(R15 (PC))
T6C38 002:494.745 - 0.005ms returns 0x08002644
T6C38 002:494.751 JLINK_ReadReg(XPSR)
T6C38 002:494.760 - 0.008ms returns 0x61000000
T6C38 002:494.772 JLINK_ReadReg(MSP)
T6C38 002:494.777 - 0.005ms returns 0x20002480
T6C38 002:494.783 JLINK_ReadReg(PSP)
T6C38 002:494.788 - 0.005ms returns 0x20001000
T6C38 002:494.794 JLINK_ReadReg(CFBP)
T6C38 002:494.799 - 0.005ms returns 0x00000000
T4DD0 002:495.348 JLINK_ReadMemEx(0x20002440, 0x20 Bytes, Flags = 0x02000000)
T4DD0 002:495.360   CPU_ReadMem(64 bytes @ 0x20002440)
T4DD0 002:496.571    -- Updating C cache (64 bytes @ 0x20002440)
T4DD0 002:496.582    -- Read from C cache (32 bytes @ 0x20002440)
T4DD0 002:496.590   Data:  00 00 00 00 00 00 00 00 00 00 00 00 00 00 00 00 ...
T4DD0 002:496.597 - 1.249ms returns 32 (0x20)
T4DD0 002:496.638 JLINK_ReadMemEx(0x00000000, 0x4 Bytes, Flags = 0x02000000)
T4DD0 002:496.646   CPU_ReadMem(4 bytes @ 0x40023844)
T4DD0 002:497.322   CPU_ReadMem(64 bytes @ 0x08000000)
T4DD0 002:498.530    -- Updating C cache (64 bytes @ 0x08000000)
T4DD0 002:498.544    -- Read from C cache (4 bytes @ 0x08000000)
T4DD0 002:498.551   Data:  80 24 00 20
T4DD0 002:498.558 - 1.920ms returns 4 (0x4)
T4DD0 002:504.338 JLINK_HasError()
T4DD0 002:504.354 JLINK_ReadMemU32(0xE0001004, 0x1 Items)
T4DD0 002:504.366   CPU_ReadMem(4 bytes @ 0xE0001004)
T4DD0 002:504.981   Data:  1C 5F 00 00
T4DD0 002:504.993   Debug reg: DWT_CYCCNT
T4DD0 002:505.000 - 0.645ms returns 1 (0x1)
T4DD0 002:507.028 JLINK_ReadMemEx(0x08002544, 0x3C Bytes, Flags = 0x02000000)
T4DD0 002:507.043   CPU_ReadMem(64 bytes @ 0x08002540)
T4DD0 002:508.211    -- Updating C cache (64 bytes @ 0x08002540)
T4DD0 002:508.222    -- Read from C cache (60 bytes @ 0x08002544)
T4DD0 002:508.230   Data:  B5 FD 05 B0 00 BD 00 00 00 30 01 40 08 B5 0D 20 ...
T4DD0 002:508.236 - 1.208ms returns 60 (0x3C)
T4DD0 002:508.247 JLINK_ReadMemEx(0x08002580, 0x3C Bytes, Flags = 0x02000000)
T4DD0 002:508.254   CPU_ReadMem(64 bytes @ 0x08002580)
T4DD0 002:509.416    -- Updating C cache (64 bytes @ 0x08002580)
T4DD0 002:509.427    -- Read from C cache (60 bytes @ 0x08002580)
T4DD0 002:509.434   Data:  70 B5 05 46 0E 46 00 24 0C E0 00 BF 02 21 0A 48 ...
T4DD0 002:509.441 - 1.193ms returns 60 (0x3C)
T4DD0 002:509.452 JLINK_ReadMemEx(0x080025BC, 0x3C Bytes, Flags = 0x02000000)
T4DD0 002:509.458   CPU_ReadMem(64 bytes @ 0x080025C0)
T4DD0 002:510.628    -- Updating C cache (64 bytes @ 0x080025C0)
T4DD0 002:510.635    -- Read from C cache (60 bytes @ 0x080025BC)
T4DD0 002:510.642   Data:  30 B5 8B B0 05 46 0C 46 12 48 FE F7 6B FA 12 48 ...
T4DD0 002:510.648 - 1.196ms returns 60 (0x3C)
T4DD0 002:510.658 JLINK_ReadMemEx(0x080025F8, 0x3C Bytes, Flags = 0x02000000)
T4DD0 002:510.664   CPU_ReadMem(64 bytes @ 0x08002600)
T4DD0 002:511.842    -- Updating C cache (64 bytes @ 0x08002600)
T4DD0 002:511.852    -- Read from C cache (60 bytes @ 0x080025F8)
T4DD0 002:511.860   Data:  01 22 02 21 04 48 FE F7 0B FB 01 21 02 48 FE F7 ...
T4DD0 002:511.868 - 1.210ms returns 60 (0x3C)
T4DD0 002:511.880 JLINK_ReadMemEx(0x08002634, 0x3C Bytes, Flags = 0x02000000)
T4DD0 002:511.888   CPU_ReadMem(64 bytes @ 0x08002640)
T4DD0 002:513.101    -- Updating C cache (64 bytes @ 0x08002640)
T4DD0 002:513.112    -- Read from C cache (60 bytes @ 0x08002634)
T4DD0 002:513.120   Data:  4F F4 00 51 01 48 FE F7 AA FB 08 BD 00 10 01 40 ...
T4DD0 002:513.128 - 1.247ms returns 60 (0x3C)
T4DD0 016:721.394 JLINK_HasError()
T4DD0 016:721.419 JLINK_SetResetType(JLINKARM_CM3_RESET_TYPE_NORMAL)
T4DD0 016:721.426 - 0.005ms returns JLINKARM_CM3_RESET_TYPE_NORMAL
T4DD0 016:721.430 JLINK_Reset()
T4DD0 016:721.458   Memory map 'before startup completion point' is active
T4DD0 016:721.472   CPU_WriteMem(4 bytes @ 0xE000EDF0)
T4DD0 016:722.195   CPU_WriteMem(4 bytes @ 0xE000EDFC)
T4DD0 016:722.877   Reset: Halt core after reset via DEMCR.VC_CORERESET.
T4DD0 016:723.677   Reset: Reset device via AIRCR.SYSRESETREQ.
T4DD0 016:723.686   CPU_WriteMem(4 bytes @ 0xE000ED0C)
T4DD0 016:778.836   CPU_ReadMem(4 bytes @ 0xE000EDF0)
T4DD0 016:779.428   CPU_ReadMem(4 bytes @ 0xE000EDF0)
T4DD0 016:780.536   CPU_WriteMem(4 bytes @ 0xE000EDFC)
T4DD0 016:786.178   CPU_ReadMem(4 bytes @ 0xE000EDF0)
T4DD0 016:790.194   CPU_WriteMem(4 bytes @ 0xE0002000)
T4DD0 016:790.812   CPU_ReadMem(4 bytes @ 0xE000EDFC)
T4DD0 016:791.374   CPU_ReadMem(4 bytes @ 0xE0001000)
T4DD0 016:791.942 - 70.510ms
T4DD0 016:792.512 JLINK_HasError()
T4DD0 016:792.522 JLINK_ReadReg(R15 (PC))
T4DD0 016:792.532 - 0.009ms returns 0x08000100
T4DD0 016:792.538 JLINK_ReadReg(XPSR)
T4DD0 016:792.544 - 0.006ms returns 0x01000000
T4DD0 016:792.590 JLINK_HasError()
T4DD0 016:792.614 JLINK_ReadReg(R0)
T4DD0 016:792.620 - 0.006ms returns 0x08002645
T4DD0 016:792.628 JLINK_ReadReg(R1)
T4DD0 016:792.634 - 0.006ms returns 0x20002480
T4DD0 016:792.640 JLINK_ReadReg(R2)
T4DD0 016:792.646 - 0.005ms returns 0x00000000
T4DD0 016:792.652 JLINK_ReadReg(R3)
T4DD0 016:792.658 - 0.005ms returns 0x080015CD
T4DD0 016:792.664 JLINK_ReadReg(R4)
T4DD0 016:792.670 - 0.005ms returns 0x0800B2D0
T4DD0 016:792.680 JLINK_ReadReg(R5)
T4DD0 016:792.688 - 0.008ms returns 0x0800B2D0
T4DD0 016:792.694 JLINK_ReadReg(R6)
T4DD0 016:792.700 - 0.005ms returns 0x00000001
T4DD0 016:792.708 JLINK_ReadReg(R7)
T4DD0 016:792.712 - 0.005ms returns 0x00000001
T4DD0 016:792.718 JLINK_ReadReg(R8)
T4DD0 016:792.724 - 0.005ms returns 0x00000000
T4DD0 016:792.730 JLINK_ReadReg(R9)
T4DD0 016:792.736 - 0.005ms returns 0x20000160
T4DD0 016:792.742 JLINK_ReadReg(R10)
T4DD0 016:792.748 - 0.005ms returns 0x00000000
T4DD0 016:792.754 JLINK_ReadReg(R11)
T4DD0 016:792.758 - 0.005ms returns 0x00000000
T4DD0 016:792.764 JLINK_ReadReg(R12)
T4DD0 016:792.772 - 0.005ms returns 0x00000000
T4DD0 016:792.778 JLINK_ReadReg(R13 (SP))
T4DD0 016:792.782 - 0.005ms returns 0x20002480
T4DD0 016:792.788 JLINK_ReadReg(R14)
T4DD0 016:792.796 - 0.005ms returns 0xFFFFFFFF
T4DD0 016:792.802 JLINK_ReadReg(R15 (PC))
